! VERSION = 6.00
BEGIN_HEADER
 ICCAP_INPUTS
  vb         V  B GROUND SMU4 0.1 CON        -2.5
  vs         V  S GROUND SMU3 0.1 CON        0
  vg         V  G GROUND SMU2 0.1 LIN        2    1.342      2.5        6    0.2316    
  vd         V  D GROUND SMU1 0.1 LIN        1    0          2.5        51   0.05      
 ICCAP_OUTPUTS
  id         I  D GROUND SMU1 B
  ig         I  G GROUND GND B
  is         I  S GROUND GND B
  ib         I  B GROUND GND B
 ICCAP_VALUES
  DataOrigin "Simulation"
  ___CONTEXT ""
  Date "Jul 5 Tue 09:33:13 2016"
  Version "WaferPro.2016.04"
  Bench "WX-ABench"
  Temperature "27"
  Lot "MyLotA_02"
  Wafer "Wafer_1"
  Die "X-1-Y-1"
  DieList "WX_TargetDies_1"
  Block "WholeDie"
  Subsite "Subsite_1"
  Routine "WPro_MOSFET_DC"
  MeasCond "WX_DC_MeasGroup1"
  Device "1"
  DeviceName "Device_1"
  DevTechno "MOSFET"
  DevPolarity "N"
  Setup "IdVd_WBulk"
  Type "1"
  ___SPICE_INSTANCE ""
  W "100.000u"
  L "10.0000u"
  Nf " 1.000 "
  ___TECHNO_INSTANCE ""
  ___CALIBRATION ""
END_HEADER

BEGIN_DB
 ICCAP_VAR vb         -2.5           
 ICCAP_VAR vs         0              
 ICCAP_VAR vg         1.342          

 #vd                    id                    ig                    is                    ib                   
  0                     9.61103663412e-015    0                     9.9013906046e-015     0                    
  0.05                  1.35715460531e-005    0                     -1.39815815868e-005   0                    
  0.1                   2.38959096477e-005    0                     -2.46179316186e-005   0                    
  0.15                  3.10475397953e-005    0                     -3.19857252379e-005   0                    
  0.2                   3.52522406571e-005    0                     -3.63175675564e-005   0                    
  0.25                  3.71596420429e-005    0                     -3.82827004304e-005   0                    
  0.3                   3.78483518405e-005    0                     -3.89923160123e-005   0                    
  0.35                  3.81072838412e-005    0                     -3.92591661513e-005   0                    
  0.4                   3.82314567534e-005    0                     -3.93871846648e-005   0                    
  0.45                  3.83079175707e-005    0                     -3.94660492623e-005   0                    
  0.5                   3.83644639015e-005    0                     -3.95243976126e-005   0                    
  0.55                  3.84114659648e-005    0                     -3.95729133506e-005   0                    
  0.6                   3.84533776402e-005    0                     -3.96161851434e-005   0                    
  0.65                  3.84923413172e-005    0                     -3.9656419918e-005    0                    
  0.7                   3.85294838726e-005    0                     -3.96947783892e-005   0                    
  0.75                  3.85654409494e-005    0                     -3.97319161848e-005   0                    
  0.8                   3.86005942172e-005    0                     -3.97682256928e-005   0                    
  0.85                  3.86351823558e-005    0                     -3.98039532169e-005   0                    
  0.9                   3.8669361572e-005     0                     -3.98392596483e-005   0                    
  0.95                  3.87032373875e-005    0                     -3.98742536932e-005   0                    
  1                     3.87368834268e-005    0                     -3.99090109555e-005   0                    
  1.05                  3.87703514675e-005    0                     -3.99435853511e-005   0                    
  1.1                   3.88036799605e-005    0                     -3.99780161816e-005   0                    
  1.15                  3.88368979623e-005    0                     -4.00123326537e-005   0                    
  1.2                   3.88700253538e-005    0                     -4.00465568474e-005   0                    
  1.25                  3.89030800495e-005    0                     -4.00807057127e-005   0                    
  1.3                   3.89360740653e-005    0                     -4.01147924423e-005   0                    
  1.35                  3.89690181062e-005    0                     -4.01488274345e-005   0                    
  1.4                   3.90019196003e-005    0                     -4.018281898e-005     0                    
  1.45                  3.9034784883e-005     0                     -4.02167737633e-005   0                    
  1.5                   3.90676198531e-005    0                     -4.02506972335e-005   0                    
  1.55                  3.91004284431e-005    0                     -4.02845938863e-005   0                    
  1.6                   3.91332148039e-005    0                     -4.03184674842e-005   0                    
  1.65                  3.91659817755e-005    0                     -4.03523212342e-005   0                    
  1.7                   3.9198732198e-005     0                     -4.0386157938e-005    0                    
  1.75                  3.92314680377e-005    0                     -4.04199801251e-005   0                    
  1.8                   3.92641919162e-005    0                     -4.04537901762e-005   0                    
  1.85                  3.9296906018e-005     0                     -4.04875904439e-005   0                    
  1.9                   3.93296129647e-005    0                     -4.05213833738e-005   0                    
  1.95                  3.93623158148e-005    0                     -4.05551716293e-005   0                    
  2                     3.93950165342e-005    0                     -4.05889582225e-005   0                    
  2.05                  3.94277181814e-005    0                     -4.06227466508e-005   0                    
  2.1                   3.94604264361e-005    0                     -4.06565410411e-005   0                    
  2.15                  3.94931441381e-005    0                     -4.06903462989e-005   0                    
  2.2                   3.95258791516e-005    0                     -4.07241682634e-005   0                    
  2.25                  3.95586362824e-005    0                     -4.07580138658e-005   0                    
  2.3                   3.95914242682e-005    0                     -4.07918912893e-005   0                    
  2.35                  3.96242518469e-005    0                     -4.08258101294e-005   0                    
  2.4                   3.96571308144e-005    0                     -4.08597815523e-005   0                    
  2.45                  3.96900725295e-005    0                     -4.0893818449e-005    0                    
  2.5                   3.97230927201e-005    0                     -4.09279355842e-005   0                    
END_DB

BEGIN_DB
 ICCAP_VAR vb         -2.5           
 ICCAP_VAR vs         0              
 ICCAP_VAR vg         1.5736         

 #vd                    id                    ig                    is                    ib                   
  0                     9.60980757177e-015    0                     9.90130628353e-015    0                    
  0.05                  3.06398813049e-005    0                     -3.15693688029e-005   0                    
  0.1                   5.77144509123e-005    0                     -5.94654082378e-005   0                    
  0.15                  8.12397083226e-005    0                     -8.37045774969e-005   0                    
  0.2                   0.000101235345714     0                     -0.000104307140675    0                    
  0.25                  0.000117729108199     0                     -0.000121301659047    0                    
  0.3                   0.000130767651441     0                     -0.000134736179033    0                    
  0.35                  0.000140445037281     0                     -0.000144707592258    0                    
  0.4                   0.000146975197775     0                     -0.000151436299912    0                    
  0.45                  0.000150830588176     0                     -0.000155409075772    0                    
  0.5                   0.000152813823484     0                     -0.000157452881081    0                    
  0.55                  0.000153781758308     0                     -0.00015845057094     0                    
  0.6                   0.000154292240196     0                     -0.000158976923335    0                    
  0.65                  0.00015460462339      0                     -0.000159299164055    0                    
  0.7                   0.000154826067037     0                     -0.000159527705152    0                    
  0.75                  0.000155001922684     0                     -0.000159709275038    0                    
  0.8                   0.000155152897864     0                     -0.000159865209578    0                    
  0.85                  0.00015528926535      0                     -0.000160006093486    0                    
  0.9                   0.000155416520586     0                     -0.000160137588697    0                    
  0.95                  0.00015553779919      0                     -0.00016026292628     0                    
  1                     0.000155654990898     0                     -0.000160384053778    0                    
  1.05                  0.000155769289493     0                     -0.000160502200644    0                    
  1.1                   0.000155881478303     0                     -0.000160618174121    0                    
  1.15                  0.000155992088796     0                     -0.000160732522367    0                    
  1.2                   0.000156101493851     0                     -0.000160845628575    0                    
  1.25                  0.000156209959746     0                     -0.000160957767471    0                    
  1.3                   0.00015631768155      0                     -0.00016106914042     0                    
  1.35                  0.000156424805399     0                     -0.000161179897928    0                    
  1.4                   0.000156531442698     0                     -0.000161290154457    0                    
  1.45                  0.000156637679513     0                     -0.000161399998412    0                    
  1.5                   0.000156743581813     0                     -0.000161509499033    0                    
  1.55                  0.000156849204425     0                     -0.000161618711239    0                    
  1.6                   0.000156954588855     0                     -0.000161727679096    0                    
  1.65                  0.000157059770707     0                     -0.000161836438343    0                    
  1.7                   0.00015716477816      0                     -0.000161945018271    0                    
  1.75                  0.000157269634151     0                     -0.000162053443145    0                    
  1.8                   0.000157374359431     0                     -0.000162161733298    0                    
  1.85                  0.000157478969728     0                     -0.000162269906014    0                    
  1.9                   0.000157583480552     0                     -0.000162377976251    0                    
  1.95                  0.000157687903916     0                     -0.000162485957262    0                    
  2                     0.000157792252271     0                     -0.000162593861164    0                    
  2.05                  0.000157896536757     0                     -0.000162701699462    0                    
  2.1                   0.000158000766768     0                     -0.000162809483569    0                    
  2.15                  0.000158104956501     0                     -0.000162917225331    0                    
  2.2                   0.000158209116877     0                     -0.000163024937562    0                    
  2.25                  0.000158313261876     0                     -0.000163132634602    0                    
  2.3                   0.000158417408098     0                     -0.000163240332899    0                    
  2.35                  0.000158521572143     0                     -0.000163348051607    0                    
  2.4                   0.000158625778911     0                     -0.000163455813216    0                    
  2.45                  0.000158730051991     0                     -0.00016356364418     0                    
  2.5                   0.000158834421961     0                     -0.000163671575574    0                    
END_DB

BEGIN_DB
 ICCAP_VAR vb         -2.5           
 ICCAP_VAR vs         0              
 ICCAP_VAR vg         1.8052         

 #vd                    id                    ig                    is                    ib                   
  0                     9.60857850942e-015    0                     9.90122196246e-015    0                    
  0.05                  4.63144871234e-005    0                     -4.77251749701e-005   0                    
  0.1                   8.90486694415e-005    0                     -9.1761207874e-005    0                    
  0.15                  0.000128214777555     0                     -0.000132120675958    0                    
  0.2                   0.000163825503622     0                     -0.000168816632235    0                    
  0.25                  0.000195894328571     0                     -0.000201862942604    0                    
  0.3                   0.000224436114407     0                     -0.000231274896464    0                    
  0.35                  0.000249468228151     0                     -0.000257070364324    0                    
  0.4                   0.000271012778355     0                     -0.000279272103413    0                    
  0.45                  0.000289101303469     0                     -0.000297912587825    0                    
  0.5                   0.000303785037843     0                     -0.000313044588745    0                    
  0.55                  0.000315157866216     0                     -0.000324764828131    0                    
  0.6                   0.000323405242469     0                     -0.000333264389427    0                    
  0.65                  0.000328887592341     0                     -0.000338914664686    0                    
  0.7                   0.000332204559331     0                     -0.000342333559946    0                    
  0.75                  0.00033409516861      0                     -0.000344282620511    0                    
  0.8                   0.000335189089233     0                     -0.000345410706485    0                    
  0.85                  0.000335876346384     0                     -0.000346119731943    0                    
  0.9                   0.000336357202079     0                     -0.000346616064085    0                    
  0.95                  0.000336728576871     0                     -0.000346999578005    0                    
  1                     0.000337038234403     0                     -0.000347319494296    0                    
  1.05                  0.000337310922913     0                     -0.000347601314682    0                    
  1.1                   0.000337560224655     0                     -0.000347859036619    0                    
  1.15                  0.000337794020458     0                     -0.0003481007803      0                    
  1.2                   0.000338017114282     0                     -0.000348331496611    0                    
  1.25                  0.000338232565847     0                     -0.000348554338574    0                    
  1.3                   0.000338442398735     0                     -0.000348771391727    0                    
  1.35                  0.000338647997233     0                     -0.000348984081653    0                    
  1.4                   0.000338850333708     0                     -0.000349193411125    0                    
  1.45                  0.000339050109913     0                     -0.000349400103399    0                    
  1.5                   0.000339247843702     0                     -0.000349604691748    0                    
  1.55                  0.000339443923845     0                     -0.000349807577094    0                    
  1.6                   0.000339638648255     0                     -0.000350009066117    0                    
  1.65                  0.000339832248011     0                     -0.000350209397065    0                    
  1.7                   0.000340024904829     0                     -0.000350408757609    0                    
  1.75                  0.000340216764608     0                     -0.000350607297447    0                    
  1.8                   0.000340407944854     0                     -0.000350805137362    0                    
  1.85                  0.0003405985397       0                     -0.000351002375837    0                    
  1.9                   0.000340788628868     0                     -0.000351199093983    0                    
  1.95                  0.000340978278316     0                     -0.000351395359257    0                    
  2                     0.000341167541993     0                     -0.000351591228342    0                    
  2.05                  0.000341356467948     0                     -0.000351786749427    0                    
  2.1                   0.000341545094841     0                     -0.000351981964059    0                    
  2.15                  0.000341733458271     0                     -0.000352176908714    0                    
  2.2                   0.000341921590564     0                     -0.00035237161618     0                    
  2.25                  0.000342109522732     0                     -0.000352566116823    0                    
  2.3                   0.000342297280986     0                     -0.0003527604398      0                    
  2.35                  0.000342484894154     0                     -0.000352954614249    0                    
  2.4                   0.000342672391938     0                     -0.000353148670501    0                    
  2.45                  0.000342859805788     0                     -0.000353342641313    0                    
  2.5                   0.000343047171085     0                     -0.000353536563142    0                    
END_DB

BEGIN_DB
 ICCAP_VAR vb         -2.5           
 ICCAP_VAR vs         0              
 ICCAP_VAR vg         2.0368         

 #vd                    id                    ig                    is                    ib                   
  0                     9.60734944707e-015    0                     9.90113764139e-015    0                    
  0.05                  6.07026027157e-005    0                     -6.2559006007e-005    0                    
  0.1                   0.000117879988389     0                     -0.000121485271469    0                    
  0.15                  0.00017154310759      0                     -0.000176790056372    0                    
  0.2                   0.000221702999858     0                     -0.00022848471245     0                    
